        Frequency / GHz                S1,1/abs,linear                S1,1/arg,degrees
----------------------------------------------------------------------------------------------------------------
             0.099999994                      0.37040811                       182.29089
                  0.1699                      0.37196303                       183.86827
              0.23979999                      0.37430571                       185.40917
              0.30969998                      0.37741513                       186.90014
              0.37959999                      0.38126404                       188.32904
              0.44949999                      0.38582004                       189.68554
                  0.5194                      0.39104649                       190.96103
              0.58929998                      0.39690337                       192.14875
              0.65919995                       0.4033483                       193.24382
              0.72909999                      0.41033737                         194.243
              0.79899997                      0.41782603                       195.14465
              0.86889994                      0.42576966                       195.94848
              0.93879998                      0.43412424                       196.65535
                  1.0087                      0.44284665                       197.26707
               1.0785999                      0.45189515                       197.78621
                  1.1485                      0.46122953                       198.21596
                  1.2184                      0.47081141                        198.5599
                  1.2883                      0.48060416                       198.82188
               1.3582001                      0.49057306                       199.00598
               1.4280999                      0.50068534                       199.11634
               1.4979999                      0.51091014                       199.15709
               1.5678999                      0.52121836                       199.13234
               1.6377999                      0.53158271                       199.04611
               1.7076999                      0.54197763                       198.90227
               1.7775999                      0.55237925                       198.70457
                  1.8475                      0.56276504                       198.45657
                  1.9174                      0.57311421                       198.16171
               1.9872999                       0.5834072                       197.82321
                  2.0572                      0.59362589                       197.44414
                  2.1271                      0.60375329                        197.0274
               2.1969998                      0.61377374                       196.57571
               2.2668998                      0.62367264                       196.09166
               2.3367999                      0.63343629                       195.57767
               2.4066999                      0.64305232                       195.03601
               2.4765999                      0.65250909                       194.46884
                  2.5465                      0.66179593                       193.87817
               2.6163998                      0.67090311                        193.2659
               2.6862998                      0.67982165                       192.63381
               2.7561998                      0.68854349                       191.98359
               2.8260999                      0.69706114                       191.31681
               2.8959999                       0.7053679                       190.63496
               2.9658999                      0.71345798                       189.93947
                  3.0358                      0.72132596                       189.23165
                  3.1057                      0.72896736                       188.51274
               3.1756001                      0.73637816                       187.78395
               3.2454998                      0.74355495                       187.04638
               3.3153999                      0.75049494                       186.30111
               3.3852999                      0.75719602                       185.54915
                  3.4552                      0.76365651                       184.79142
                  3.5251                      0.76987525                       184.02887
                   3.595                      0.77585154                       183.26231
               3.6649001                       0.7815855                        182.4926
               3.7347999                      0.78707737                        181.7205
               3.8046999                       0.7923281                       180.94675
               3.8745999                       0.7973388                       180.17203
                  3.9445                      0.80211158                       179.39704
                  4.0144                      0.80664835                        178.6224
                  4.0843                      0.81095173                       177.84871
               4.1542001                      0.81502495                       177.07655
               4.2241001                      0.81887101                       176.30648
               4.2940001                      0.82249399                         175.539
               4.3638997                      0.82589778                       174.77462
               4.4338002                      0.82908681                        174.0138
               4.5036998                      0.83206595                       173.25697
               4.5735998                      0.83484022                       172.50458
               4.6434999                      0.83741479                       171.75699
               4.7133999                      0.83979546                        171.0146
               4.7832999                      0.84198801                       170.27774
                  4.8532                      0.84399856                       169.54674
                  4.9231                      0.84583332                       168.82191
                   4.993                      0.84749888                       168.10354
               5.0629001                      0.84900192                       167.39186
               5.1327996                       0.8503493                       166.68713
               5.2026997                      0.85154799                       165.98955
               5.2725997                        0.852605                       165.29933
               5.3424997                      0.85352767                       164.61663
               5.4123998                      0.85432317                       163.94157
               5.4822998                      0.85499889                       163.27433
               5.5521998                      0.85556226                       162.61497
               5.6220999                      0.85602061                        161.9636
               5.6919999                      0.85638141                       161.32026
               5.7618999                      0.85665194                       160.68498
               5.8317995                      0.85683966                       160.05781
                  5.9017                      0.85695166                       159.43869
               5.9715996                      0.85699521                       158.82763
               6.0415001                      0.85697748                       158.22458
               6.1113997                      0.85690515                       157.62943
               6.1813002                      0.85678525                       157.04214
               6.2511997                      0.85662432                       156.46256
               6.3210998                      0.85642882                       155.89053
               6.3909998                      0.85620484                       155.32599
               6.4608998                      0.85595865                       154.76867
               6.5307999                      0.85569592                       154.21847
               6.6006999                      0.85542208                       153.67515
               6.6705999                       0.8551425                       153.13843
                  6.7405                      0.85486222                       152.60816
               6.8103995                      0.85458586                       152.08405
                  6.8803                      0.85431782                       151.56579
               6.9501996                      0.85406218                       151.05322
               7.0201001                      0.85382278                       150.54596
               7.0899997                      0.85360301                       150.04377
               7.1599002                      0.85340601                       149.54632
               7.2297997                      0.85323458                       149.05335
               7.2996998                      0.85309117                       148.56446
               7.3695998                       0.8529779                        148.0794
               7.4394994                      0.85289673                        147.5979
               7.5093999                      0.85284881                       147.11954
               7.5792994                      0.85283552                       146.64408
                  7.6492                      0.85285765                       146.17117
               7.7190995                      0.85291569                       145.70053
                   7.789                      0.85300994                       145.23184
               7.8588996                       0.8531403                       144.76486
               7.9288001                      0.85330643                       144.29922
               7.9986997                      0.85350766                       143.83469
               8.0685997                      0.85374328                         143.371
               8.1385002                        0.854012                       142.90787
               8.2083998                      0.85431269                        142.4451
               8.2783003                      0.85464373                       141.98245
               8.3481998                      0.85500343                       141.51969
               8.4181004                      0.85538988                       141.05662
               8.4879999                      0.85580113                       140.59298
               8.5578995                      0.85623491                       140.12875
                  8.6278                      0.85668891                       139.66367
               8.6977005                      0.85716079                        139.1976
               8.7675991                      0.85764809                       138.73047
               8.8374996                      0.85814817                       138.26211
               8.9074001                      0.85865858                       137.79246
               8.9773006                      0.85917654                       137.32145
               9.0471992                      0.85969937                       136.84897
               9.1170998                      0.86022465                       136.37503
               9.1870003                      0.86074949                       135.89956
               9.2568989                      0.86127142                       135.42251
               9.3267994                       0.8617879                       134.94396
               9.3966999                      0.86229639                       134.46387
               9.4666004                       0.8627944                       133.98224
                9.536499                       0.8632797                       133.49912
               9.6063995                      0.86374985                       133.01456
                  9.6763                      0.86420286                       132.52856
               9.7461996                      0.86463657                       132.04126
               9.8160992                      0.86504904                       131.55271
               9.8859997                      0.86543859                       131.06295
               9.9559002                      0.86580343                       130.57211
                 10.0258                      0.86614202                       130.08023
               10.095699                      0.86645295                        129.5875
                 10.1656                      0.86673513                       129.09391
               10.235499                      0.86698726                       128.59968
                 10.3054                      0.86720844                       128.10483
               10.375299                      0.86739795                       127.60953
                 10.4452                      0.86755491                       127.11386
                 10.5151                      0.86767906                       126.61795
                  10.585                      0.86776997                       126.12192
                 10.6549                      0.86782731                       125.62592
                 10.7248                      0.86785119                       125.13001
                 10.7947                      0.86784161                       124.63434
                 10.8646                      0.86779876                       124.13904
                 10.9345                      0.86772304                       123.64417
               11.004399                      0.86761481                       123.14984
                 11.0743                      0.86747477                       122.65622
                 11.1442                      0.86730359                       122.16336
                 11.2141                      0.86710204                       121.67135
               11.283999                      0.86687106                        121.1803
                 11.3539                       0.8666117                       120.69028
                 11.4238                      0.86632495                       120.20139
               11.493699                      0.86601212                       119.71365
                 11.5636                       0.8656743                       119.22721
                 11.6335                      0.86531287                       118.74206
                 11.7034                      0.86492919                       118.25831
               11.773299                      0.86452466                       117.77594
                 11.8432                      0.86410066                       117.29502
                 11.9131                      0.86365869                       116.81558
               11.982999                      0.86320021                       116.33766
               12.052899                      0.86272667                       115.86127
                 12.1228                      0.86223962                        115.3864
                 12.1927                      0.86174055                       114.91308
               12.262599                      0.86123077                       114.44128
                 12.3325                      0.86071199                         113.971
                 12.4024                       0.8601854                       113.50222
                 12.4723                      0.85965241                       113.03492
               12.542199                      0.85911446                       112.56908
                 12.6121                      0.85857269                       112.10463
                  12.682                      0.85802835                       111.64154
                 12.7519                       0.8574827                       111.17977
               12.821799                       0.8569367                       110.71927
                 12.8917                      0.85639139                       110.25996
               12.961599                      0.85584773                       109.80181
                 13.0315                      0.85530659                       109.34471
               13.101399                      0.85476872                       108.88862
                 13.1713                      0.85423475                       108.43347
               13.241199                      0.85370532                       107.97917
               13.311099                      0.85318102                       107.52564
                  13.381                      0.85266206                       107.07281
                 13.4509                      0.85214894                       106.62061
                 13.5208                      0.85164177                       106.16893
               13.590699                      0.85114064                        105.7177
                 13.6606                      0.85064578                       105.26685
               13.730499                      0.85015695                       104.81628
                 13.8004                      0.84967406                       104.36594
               13.870299                      0.84919698                       103.91571
                 13.9402                       0.8487253                       103.46556
               14.010099                      0.84825853                       103.01537
                   14.08                      0.84779646                        102.5651
               14.149899                      0.84733836                       102.11468
               14.219799                      0.84688373                       101.66403
                 14.2897                      0.84643187                        101.2131
                 14.3596                      0.84598196                       100.76183
                 14.4295                      0.84553338                       100.31017
               14.499399                      0.84508519                       99.858056
                 14.5693                      0.84463663                       99.405467
                 14.6392                      0.84418668                       98.952344
               14.709099                      0.84373442                        98.49867
               14.778999                      0.84327903                       98.044408
                 14.8489                      0.84281929                       97.589532
                 14.9188                      0.84235438                       97.134019
               14.988699                      0.84188331                       96.677858
               15.058599                        0.841405                       96.221041
                 15.1285                      0.84091839                       95.763562
                 15.1984                      0.84042269                       95.305427
               15.268299                      0.83991672                       94.846643
                 15.3382                       0.8393996                       94.387197
                 15.4081                       0.8388703                       93.927136
               15.477999                      0.83832809                        93.46646
               15.547899                      0.83777185                       93.005197
