        Frequency / GHz                S1,1/abs,linear                S1,1/arg,degrees
----------------------------------------------------------------------------------------------------------------
             0.099999994                      0.37397756                       182.75175
                  0.1699                      0.37548756                       184.65232
              0.23979999                      0.37776317                       186.51797
              0.30969998                      0.38078467                       188.33577
              0.37959999                      0.38452643                       190.09408
              0.44949999                      0.38895806                       191.78289
                  0.5194                      0.39404479                       193.39377
              0.58929998                      0.39974888                       194.92016
              0.65919995                      0.40603002                       196.35713
              0.72909999                      0.41284657                       197.70145
              0.79899997                      0.42015589                       198.95131
              0.86889994                      0.42791527                       200.10625
              0.93879998                      0.43608241                       201.16692
                  1.0087                      0.44461587                       202.13496
               1.0785999                      0.45347515                       203.01262
                  1.1485                      0.46262147                       203.80289
                  1.2184                      0.47201742                       204.50907
                  1.2883                      0.48162728                       205.13487
               1.3582001                      0.49141726                       205.68411
               1.4280999                      0.50135524                       206.16074
               1.4979999                      0.51141083                       206.56872
               1.5678999                      0.52155553                       206.91199
               1.6377999                       0.5317625                       207.19442
               1.7076999                      0.54200641                       207.41979
               1.7775999                      0.55226372                       207.59169
                  1.8475                      0.56251216                       207.71363
                  1.9174                       0.5727311                       207.78894
               1.9872999                       0.5829011                       207.82076
                  2.0572                      0.59300411                       207.81209
                  2.1271                      0.60302325                       207.76578
               2.1969998                        0.612943                       207.68451
               2.2668998                      0.62274849                       207.57081
               2.3367999                       0.6324264                       207.42708
               2.4066999                      0.64196408                       207.25556
               2.4765999                       0.6513499                       207.05833
                  2.5465                      0.66057316                       206.83743
               2.6163998                      0.66962407                       206.59473
               2.6862998                      0.67849361                       206.33197
               2.7561998                      0.68717338                       206.05084
               2.8260999                      0.69565597                       205.75288
               2.8959999                      0.70393458                       205.43961
               2.9658999                      0.71200323                       205.11238
                  3.0358                      0.71985639                       204.77255
                  3.1057                      0.72748933                       204.42132
               3.1756001                      0.73489788                       204.05992
               3.2454998                      0.74207841                       203.68942
               3.3153999                      0.74902813                        203.3109
               3.3852999                       0.7557445                       202.92536
                  3.4552                      0.76222564                       202.53373
                  3.5251                      0.76847025                       202.13694
                   3.595                      0.77447751                       201.73581
               3.6649001                      0.78024701                       201.33118
               3.7347999                      0.78577894                       200.92381
               3.8046999                      0.79107389                       200.51445
               3.8745999                      0.79613296                       200.10381
                  3.9445                      0.80095762                       199.69252
                  4.0144                      0.80554974                       199.28123
                  4.0843                      0.80991159                       198.87057
               4.1542001                      0.81404596                       198.46109
               4.2241001                      0.81795593                       198.05333
               4.2940001                      0.82164491                       197.64782
               4.3638997                      0.82511664                       197.24507
               4.4338002                      0.82837533                       196.84555
               4.5036998                      0.83142535                       196.44968
               4.5735998                      0.83427157                       196.05789
               4.6434999                      0.83691883                       195.67058
               4.7133999                      0.83937255                       195.28813
               4.7832999                      0.84163833                       194.91091
                  4.8532                      0.84372183                       194.53921
                  4.9231                      0.84562909                       194.17339
                   4.993                      0.84736633                       193.81369
               5.0629001                      0.84894001                       193.46041
               5.1327996                      0.85035664                       193.11376
               5.2026997                      0.85162291                       192.77402
               5.2725997                      0.85274574                       192.44133
               5.3424997                      0.85373199                        192.1159
               5.4123998                      0.85458868                        191.7979
               5.4822998                      0.85532305                       191.48744
               5.5521998                      0.85594212                       191.18466
               5.6220999                      0.85645325                       190.88964
               5.6919999                      0.85686343                       190.60245
               5.7618999                      0.85718006                       190.32315
               5.8317995                      0.85741012                       190.05178
                  5.9017                      0.85756093                       189.78835
               5.9715996                      0.85763939                       189.53279
               6.0415001                      0.85765241                       189.28514
               6.1113997                      0.85760704                       189.04531
               6.1813002                      0.85750991                       188.81324
               6.2511997                      0.85736754                       188.58882
               6.3210998                      0.85718639                       188.37193
               6.3909998                      0.85697264                       188.16246
               6.4608998                      0.85673238                       187.96025
               6.5307999                       0.8564714                       187.76518
               6.6006999                      0.85619533                       187.57695
               6.6705999                      0.85590946                       187.39543
                  6.7405                      0.85561887                       187.22044
               6.8103995                      0.85532846                       187.05168
                  6.8803                      0.85504259                       186.88891
               6.9501996                      0.85476561                       186.73192
               7.0201001                      0.85450151                       186.58037
               7.0899997                      0.85425375                       186.43407
               7.1599002                      0.85402589                       186.29269
               7.2297997                      0.85382071                        186.1559
               7.2996998                      0.85364102                       186.02345
               7.3695998                      0.85348918                       185.89506
               7.4394994                      0.85336716                       185.77037
               7.5093999                       0.8532767                       185.64912
               7.5792994                      0.85321934                       185.53096
                  7.6492                      0.85319606                       185.41561
               7.7190995                      0.85320771                       185.30275
                   7.789                      0.85325477                       185.19212
               7.8588996                      0.85333736                       185.08339
               7.9288001                      0.85345555                       184.97628
               7.9986997                      0.85360899                       184.87053
               8.0685997                      0.85379699                       184.76585
               8.1385002                      0.85401879                       184.66198
               8.2083998                      0.85427335                       184.55871
               8.2783003                      0.85455923                       184.45573
               8.3481998                      0.85487516                       184.35286
               8.4181004                      0.85521937                        184.2499
               8.4879999                      0.85559005                       184.14663
               8.5578995                      0.85598515                       184.04289
                  8.6278                      0.85640271                        183.9385
               8.6977005                      0.85684034                       183.83327
               8.7675991                      0.85729586                       183.72713
               8.8374996                      0.85776673                       183.61988
               8.9074001                      0.85825054                       183.51149
               8.9773006                      0.85874476                       183.40181
               9.0471992                      0.85924672                       183.29079
               9.1170998                      0.85975396                        183.1783
               9.1870003                      0.86026388                       183.06441
               9.2568989                      0.86077382                       182.94899
               9.3267994                      0.86128141                       182.83205
               9.3966999                        0.861784                       182.71357
               9.4666004                       0.8622792                       182.59362
                9.536499                      0.86276454                        182.4721
               9.6063995                      0.86323775                       182.34914
                  9.6763                      0.86369663                       182.22472
               9.7461996                      0.86413906                       182.09889
               9.8160992                      0.86456294                       181.97176
               9.8859997                      0.86496649                       181.84334
               9.9559002                      0.86534778                       181.71373
                 10.0258                      0.86570519                         181.583
               10.095699                      0.86603718                       181.45128
                 10.1656                      0.86634236                       181.31859
               10.235499                      0.86661941                       181.18511
                 10.3054                      0.86686732                       181.05088
               10.375299                        0.867085                       180.91606
                 10.4452                      0.86727171                       180.78071
                 10.5151                      0.86742664                       180.64498
                  10.585                      0.86754938                       180.50899
                 10.6549                      0.86763943                       180.37282
                 10.7248                      0.86769659                       180.23659
                 10.7947                      0.86772063                       180.10042
                 10.8646                      0.86771183                       179.96443
                 10.9345                      0.86767012                       179.82874
               11.004399                      0.86759581                       179.69347
                 11.0743                      0.86748932                       179.55867
                 11.1442                      0.86735124                       179.42448
                 11.2141                      0.86718219                         179.291
               11.283999                      0.86698278                       179.15833
                 11.3539                      0.86675403                       179.02657
                 11.4238                      0.86649667                       178.89574
               11.493699                      0.86621198                       178.76598
                 11.5636                      0.86590088                       178.63737
                 11.6335                      0.86556462                       178.50993
                 11.7034                      0.86520433                       178.38375
               11.773299                      0.86482143                       178.25887
                 11.8432                       0.8644172                       178.13539
                 11.9131                      0.86399302                       178.01325
               11.982999                      0.86355018                        177.8926
               12.052899                      0.86309033                       177.77339
                 12.1228                      0.86261467                       177.65567
                 12.1927                       0.8621249                       177.53944
               12.262599                      0.86162225                       177.42471
                 12.3325                      0.86110817                       177.31149
                 12.4024                      0.86058422                       177.19975
                 12.4723                      0.86005161                       177.08951
               12.542199                      0.85951181                       176.98071
                 12.6121                      0.85896606                       176.87335
                  12.682                       0.8584157                        176.7674
                 12.7519                       0.8578619                        176.6628
               12.821799                      0.85730577                       176.55953
                 12.8917                      0.85674851                       176.45751
               12.961599                      0.85619107                       176.35671
                 13.0315                      0.85563449                       176.25707
               13.101399                      0.85507962                       176.15854
                 13.1713                      0.85452712                       176.06103
               13.241199                      0.85397792                       175.96448
               13.311099                      0.85343246                       175.86882
                  13.381                      0.85289145                       175.77398
                 13.4509                      0.85235529                       175.67986
                 13.5208                      0.85182431                       175.58641
               13.590699                      0.85129879                       175.49353
                 13.6606                      0.85077887                       175.40117
               13.730499                      0.85026479                       175.30922
                 13.8004                      0.84975652                       175.21762
               13.870299                      0.84925382                       175.12628
                 13.9402                      0.84875674                       175.03514
               14.010099                      0.84826493                       174.94411
                   14.08                      0.84777812                       174.85312
               14.149899                      0.84729587                        174.7621
               14.219799                      0.84681773                       174.67097
                 14.2897                      0.84634321                       174.57968
                 14.3596                      0.84587164                       174.48818
                 14.4295                      0.84540234                       174.39638
               14.499399                      0.84493462                       174.30423
                 14.5693                      0.84446776                       174.21171
                 14.6392                      0.84400085                       174.11875
               14.709099                      0.84353325                       174.02528
               14.778999                      0.84306373                       173.93131
                 14.8489                       0.8425917                       173.83681
                 14.9188                      0.84211615                       173.74172
               14.988699                      0.84163594                       173.64603
               15.058599                      0.84115024                       173.54971
                 15.1285                       0.8406581                       173.45278
                 15.1984                      0.84015842                        173.3552
               15.268299                      0.83965035                       173.25697
                 15.3382                      0.83913283                        173.1581
                 15.4081                      0.83860495                       173.05859
               15.477999                      0.83806581                       172.95846
               15.547899                      0.83751441                       172.85773
