        Frequency / GHz                S1,1/abs,linear                S1,1/arg,degrees
----------------------------------------------------------------------------------------------------------------
             0.099999994                       0.1596717                       195.44335
                  0.1699                      0.17427604                       204.30827
              0.23979999                      0.19404768                       211.08945
              0.30969998                      0.21725062                       215.97464
              0.37959999                      0.24252163                       219.33912
              0.44949999                      0.26887056                       221.54984
                  0.5194                      0.29559295                       222.90358
              0.58929998                      0.32218549                       223.62467
              0.65919995                      0.34828467                       223.87894
              0.72909999                      0.37362673                       223.78891
              0.79899997                      0.39802184                       223.44595
              0.86889994                      0.42133709                        222.9191
              0.93879998                      0.44348593                       222.26096
                  1.0087                      0.46441978                       221.51242
               1.0785999                      0.48412264                       220.70523
                  1.1485                      0.50260592                       219.86429
                  1.2184                      0.51990459                       219.00901
                  1.2883                      0.53607273                       218.15439
               1.3582001                      0.55117994                        217.3118
               1.4280999                      0.56530739                        216.4896
               1.4979999                      0.57854377                       215.69339
               1.5678999                      0.59098168                        214.9266
               1.6377999                      0.60271369                       214.19071
               1.7076999                      0.61382924                       213.48563
               1.7775999                      0.62441125                       212.80994
                  1.8475                      0.63453387                       212.16117
                  1.9174                      0.64426047                       211.53617
               1.9872999                      0.65364232                       210.93142
                  2.0572                      0.66271784                       210.34316
                  2.1271                      0.67151318                       209.76779
               2.1969998                       0.6800427                       209.20193
               2.2668998                      0.68831024                       208.64286
               2.3367999                      0.69631114                       208.08829
               2.4066999                      0.70403411                       207.53658
               2.4765999                      0.71146388                       206.98697
                  2.5465                      0.71858296                       206.43918
               2.6163998                       0.7253745                       205.89368
               2.6862998                       0.7318234                       205.35144
               2.7561998                      0.73791903                       204.81381
               2.8260999                      0.74365554                       204.28253
               2.8959999                      0.74903311                       203.75944
               2.9658999                      0.75405847                       203.24643
                  3.0358                      0.75874483                       202.74536
                  3.1057                      0.76311109                       202.25782
               3.1756001                      0.76718137                       201.78521
               3.2454998                      0.77098412                       201.32846
               3.3153999                      0.77455022                       200.88822
               3.3852999                      0.77791204                       200.46454
                  3.4552                      0.78110182                       200.05725
                  3.5251                      0.78415022                       199.66558
                   3.595                      0.78708509                       199.28857
               3.6649001                      0.78993059                       198.92493
               3.7347999                      0.79270578                       198.57306
               3.8046999                      0.79542497                       198.23138
               3.8745999                       0.7980968                       197.89826
                  3.9445                      0.80072502                       197.57208
                  4.0144                      0.80330844                       197.25147
                  4.0843                      0.80584213                       196.93518
               4.1542001                      0.80831767                       196.62222
               4.2241001                      0.81072484                       196.31198
               4.2940001                      0.81305251                       196.00413
               4.3638997                       0.8152895                       195.69851
               4.4338002                      0.81742584                       195.39535
               4.5036998                      0.81945357                       195.09512
               4.5735998                        0.821367                       194.79836
               4.6434999                      0.82316407                       194.50577
               4.7133999                      0.82484548                       194.21811
               4.7832999                      0.82641559                       193.93607
                  4.8532                      0.82788148                       193.66028
                  4.9231                      0.82925305                       193.39133
                   4.993                        0.830542                       193.12952
               5.0629001                       0.8317613                       192.87507
               5.1327996                       0.8329246                       192.62794
               5.2026997                      0.83404511                       192.38791
               5.2725997                      0.83513518                       192.15458
               5.3424997                      0.83620547                       191.92736
               5.4123998                      0.83726426                       191.70563
               5.4822998                      0.83831785                       191.48859
               5.5521998                      0.83936946                       191.27545
               5.6220999                       0.8404197                       191.06546
               5.6919999                      0.84146676                       190.85788
               5.7618999                      0.84250681                       190.65213
               5.8317995                      0.84353403                        190.4477
                  5.9017                      0.84454176                       190.24425
               5.9715996                       0.8455225                       190.04159
               6.0415001                      0.84646914                        189.8397
               6.1113997                      0.84737497                       189.63872
               6.1813002                      0.84823448                       189.43885
               6.2511997                      0.84904361                       189.24048
               6.3210998                      0.84980026                       189.04394
               6.3909998                      0.85050404                       188.84972
               6.4608998                      0.85115673                       188.65819
               6.5307999                      0.85176164                       188.46977
               6.6006999                      0.85232389                       188.28474
               6.6705999                      0.85284964                       188.10335
                  6.7405                      0.85334579                       187.92569
               6.8103995                      0.85381964                       187.75175
                  6.8803                      0.85427821                       187.58144
               6.9501996                      0.85472809                       187.41449
               7.0201001                      0.85517474                       187.25062
               7.0899997                      0.85562257                       187.08943
               7.1599002                      0.85607405                       186.93049
               7.2297997                      0.85653057                       186.77336
               7.2996998                      0.85699152                       186.61759
               7.3695998                      0.85745514                        186.4628
               7.4394994                      0.85791819                       186.30866
               7.5093999                      0.85837675                        186.1549
               7.5792994                      0.85882604                       186.00135
                  7.6492                      0.85926119                       185.84798
               7.7190995                      0.85967747                       185.69476
                   7.789                      0.86007048                       185.54182
               7.8588996                      0.86043691                       185.38934
               7.9288001                      0.86077413                       185.23758
               7.9986997                      0.86108098                       185.08676
               8.0685997                      0.86135748                       184.93721
               8.1385002                      0.86160483                       184.78916
               8.2083998                      0.86182535                       184.64287
               8.2783003                      0.86202224                       184.49852
               8.3481998                      0.86219964                       184.35625
               8.4181004                      0.86236181                       184.21609
               8.4879999                      0.86251319                       184.07805
               8.5578995                      0.86265808                         183.942
                  8.6278                      0.86280039                       183.80781
               8.6977005                      0.86294319                       183.67527
               8.7675991                      0.86308861                       183.54408
               8.8374996                      0.86323794                         183.414
               8.9074001                      0.86339128                       183.28476
               8.9773006                      0.86354774                       183.15605
               9.0471992                      0.86370562                       183.02767
               9.1170998                       0.8638624                       182.89941
               9.1870003                      0.86401499                       182.77114
               9.2568989                         0.86416                       182.64277
               9.3267994                      0.86429409                       182.51431
               9.3966999                      0.86441393                       182.38581
               9.4666004                      0.86451694                       182.25736
                9.536499                      0.86460076                       182.12909
               9.6063995                      0.86466424                        182.0012
                  9.6763                      0.86470659                       181.87388
               9.7461996                      0.86472822                       181.74735
               9.8160992                      0.86473025                       181.62174
               9.8859997                       0.8647145                       181.49723
               9.9559002                      0.86468343                       181.37393
                 10.0258                      0.86463968                       181.25193
               10.095699                      0.86458647                       181.13121
                 10.1656                      0.86452665                       181.01176
               10.235499                      0.86446306                       180.89349
                 10.3054                      0.86439794                       180.77627
               10.375299                      0.86433315                       180.65994
                 10.4452                      0.86426975                       180.54432
                 10.5151                      0.86420804                       180.42925
                  10.585                       0.8641478                       180.31447
                 10.6549                      0.86408801                       180.19986
                 10.7248                      0.86402697                       180.08525
                 10.7947                      0.86396265                       179.97053
                 10.8646                      0.86389267                       179.85565
                 10.9345                      0.86381457                       179.74057
               11.004399                      0.86372595                        179.6253
                 11.0743                      0.86362458                       179.50992
                 11.1442                      0.86350864                        179.3945
                 11.2141                      0.86337675                       179.27918
               11.283999                       0.8632284                       179.16408
                 11.3539                      0.86306333                       179.04938
                 11.4238                      0.86288202                       178.93518
               11.493699                      0.86268562                       178.82162
                 11.5636                      0.86247552                        178.7088
                 11.6335                      0.86225379                        178.5968
                 11.7034                      0.86202235                       178.48565
               11.773299                      0.86178335                       178.37531
                 11.8432                      0.86153893                       178.26577
                 11.9131                      0.86129084                       178.15694
               11.982999                      0.86104051                       178.04872
               12.052899                      0.86078889                       177.94099
                 12.1228                      0.86053644                       177.83364
                 12.1927                      0.86028317                       177.72646
               12.262599                      0.86002848                       177.61933
                 12.3325                       0.8597712                       177.51222
                 12.4024                      0.85950985                       177.40492
                 12.4723                      0.85924291                       177.29749
               12.542199                      0.85896837                       177.18977
                 12.6121                      0.85868439                       177.08189
                  12.682                      0.85838925                        176.9738
                 12.7519                      0.85808138                       176.86558
               12.821799                      0.85775961                       176.75731
                 12.8917                      0.85742323                       176.64916
               12.961599                      0.85707176                       176.54112
                 13.0315                      0.85670552                       176.43339
               13.101399                      0.85632509                       176.32604
                 13.1713                      0.85593141                        176.2192
               13.241199                      0.85552564                       176.11287
               13.311099                      0.85510953                       176.00709
                  13.381                      0.85468433                       175.90194
                 13.4509                      0.85425185                       175.79738
                 13.5208                      0.85381337                       175.69331
               13.590699                      0.85337016                       175.58967
                 13.6606                      0.85292299                       175.48643
               13.730499                      0.85247227                       175.38347
                 13.8004                      0.85201817                       175.28062
               13.870299                      0.85156035                       175.17791
                 13.9402                      0.85109811                       175.07511
               14.010099                      0.85063036                       174.97221
                   14.08                      0.85015588                       174.86916
               14.149899                      0.84967319                       174.76591
               14.219799                      0.84918094                       174.66246
                 14.2897                       0.8486775                       174.55885
                 14.3596                      0.84816178                        174.4551
                 14.4295                      0.84763258                       174.35128
               14.499399                      0.84708922                       174.24745
                 14.5693                      0.84653135                       174.14375
                 14.6392                      0.84595883                       174.04018
               14.709099                      0.84537196                        173.9369
               14.778999                      0.84477139                         173.834
                 14.8489                      0.84415801                       173.73147
                 14.9188                      0.84353282                       173.62941
               14.988699                      0.84289697                       173.52779
               15.058599                      0.84225173                       173.42665
                 15.1285                      0.84159815                       173.32597
                 15.1984                      0.84093732                       173.22569
               15.268299                      0.84026984                       173.12572
                 15.3382                      0.83959607                       173.02604
                 15.4081                      0.83891645                       172.92653
               15.477999                      0.83823056                       172.82714
               15.547899                      0.83753806                       172.72777
